! Synthetic sample for emi-compass article 3.
! A nominal '100 ohm @ 100 MHz' ferrite bead as a series
! element, written from the equivalent-circuit model -- NOT a
! real vendor measurement. For trying the read-in flow only.
# Hz S MA R 50
1.000000e+06 2.197693e-02 86.3151 9.988283e-01 -1.2582 9.988283e-01 -1.2582 2.197693e-02 86.3151
1.035305e+06 2.275105e-02 86.2754 9.987801e-01 -1.3025 9.987801e-01 -1.3025 2.275105e-02 86.2754
1.071857e+06 2.355236e-02 86.2313 9.987285e-01 -1.3484 9.987285e-01 -1.3484 2.355236e-02 86.2313
1.109700e+06 2.438181e-02 86.1826 9.986731e-01 -1.3959 9.986731e-01 -1.3959 2.438181e-02 86.1826
1.148878e+06 2.524037e-02 86.1294 9.986138e-01 -1.4450 9.986138e-01 -1.4450 2.524037e-02 86.1294
1.189440e+06 2.612904e-02 86.0716 9.985502e-01 -1.4959 9.985502e-01 -1.4959 2.612904e-02 86.0716
1.231433e+06 2.704887e-02 86.0090 9.984821e-01 -1.5486 9.984821e-01 -1.5486 2.704887e-02 86.0090
1.274910e+06 2.800093e-02 85.9417 9.984091e-01 -1.6031 9.984091e-01 -1.6031 2.800093e-02 85.9417
1.319921e+06 2.898633e-02 85.8695 9.983309e-01 -1.6595 9.983309e-01 -1.6595 2.898633e-02 85.8695
1.366521e+06 3.000621e-02 85.7923 9.982470e-01 -1.7179 9.982470e-01 -1.7179 3.000621e-02 85.7923
1.414767e+06 3.106177e-02 85.7101 9.981572e-01 -1.7783 9.981572e-01 -1.7783 3.106177e-02 85.7101
1.464716e+06 3.215421e-02 85.6228 9.980610e-01 -1.8408 9.980610e-01 -1.8408 3.215421e-02 85.6228
1.516428e+06 3.328481e-02 85.5303 9.979579e-01 -1.9055 9.979579e-01 -1.9055 3.328481e-02 85.5303
1.569967e+06 3.445485e-02 85.4324 9.978475e-01 -1.9725 9.978475e-01 -1.9725 3.445485e-02 85.4324
1.625395e+06 3.566568e-02 85.3291 9.977291e-01 -2.0418 9.977291e-01 -2.0418 3.566568e-02 85.3291
1.682780e+06 3.691869e-02 85.2202 9.976023e-01 -2.1135 9.976023e-01 -2.1135 3.691869e-02 85.2202
1.742191e+06 3.821529e-02 85.1057 9.974665e-01 -2.1877 9.974665e-01 -2.1877 3.821529e-02 85.1057
1.803700e+06 3.955696e-02 84.9853 9.973210e-01 -2.2644 9.973210e-01 -2.2644 3.955696e-02 84.9853
1.867381e+06 4.094521e-02 84.8589 9.971652e-01 -2.3438 9.971652e-01 -2.3438 4.094521e-02 84.8589
1.933309e+06 4.238159e-02 84.7264 9.969982e-01 -2.4260 9.969982e-01 -2.4260 4.238159e-02 84.7264
2.001566e+06 4.386771e-02 84.5877 9.968194e-01 -2.5110 9.968194e-01 -2.5110 4.386771e-02 84.5877
2.072232e+06 4.540522e-02 84.4426 9.966279e-01 -2.5990 9.966279e-01 -2.5990 4.540522e-02 84.4426
2.145393e+06 4.699582e-02 84.2908 9.964228e-01 -2.6899 9.964228e-01 -2.6899 4.699582e-02 84.2908
2.221137e+06 4.864124e-02 84.1324 9.962032e-01 -2.7840 9.962032e-01 -2.7840 4.864124e-02 84.1324
2.299555e+06 5.034329e-02 83.9670 9.959679e-01 -2.8813 9.959679e-01 -2.8813 5.034329e-02 83.9670
2.380742e+06 5.210379e-02 83.7945 9.957161e-01 -2.9819 9.957161e-01 -2.9819 5.210379e-02 83.7945
2.464795e+06 5.392464e-02 83.6147 9.954464e-01 -3.0860 9.954464e-01 -3.0860 5.392464e-02 83.6147
2.551816e+06 5.580777e-02 83.4274 9.951577e-01 -3.1936 9.951577e-01 -3.1936 5.580777e-02 83.4274
2.641909e+06 5.775517e-02 83.2324 9.948486e-01 -3.3049 9.948486e-01 -3.3049 5.775517e-02 83.2324
2.735182e+06 5.976885e-02 83.0295 9.945177e-01 -3.4200 9.945177e-01 -3.4200 5.976885e-02 83.0295
2.831749e+06 6.185090e-02 82.8185 9.941635e-01 -3.5389 9.941635e-01 -3.5389 6.185090e-02 82.8185
2.931725e+06 6.400345e-02 82.5990 9.937845e-01 -3.6618 9.937845e-01 -3.6618 6.400345e-02 82.5990
3.035231e+06 6.622864e-02 82.3711 9.933789e-01 -3.7889 9.933789e-01 -3.7889 6.622864e-02 82.3711
3.142391e+06 6.852869e-02 82.1342 9.929449e-01 -3.9202 9.929449e-01 -3.9202 6.852869e-02 82.1342
3.253335e+06 7.090585e-02 81.8883 9.924805e-01 -4.0558 9.924805e-01 -4.0558 7.090585e-02 81.8883
3.368195e+06 7.336241e-02 81.6331 9.919838e-01 -4.1960 9.919838e-01 -4.1960 7.336241e-02 81.6331
3.487111e+06 7.590068e-02 81.3682 9.914525e-01 -4.3407 9.914525e-01 -4.3407 7.590068e-02 81.3682
3.610225e+06 7.852302e-02 81.0935 9.908843e-01 -4.4903 9.908843e-01 -4.4903 7.852302e-02 81.0935
3.737685e+06 8.123180e-02 80.8087 9.902768e-01 -4.6447 9.902768e-01 -4.6447 8.123180e-02 80.8087
3.869646e+06 8.402944e-02 80.5134 9.896273e-01 -4.8041 9.896273e-01 -4.8041 8.402944e-02 80.5134
4.006265e+06 8.691836e-02 80.2075 9.889330e-01 -4.9686 9.889330e-01 -4.9686 8.691836e-02 80.2075
4.147708e+06 8.990100e-02 79.8905 9.881911e-01 -5.1385 9.881911e-01 -5.1385 8.990100e-02 79.8905
4.294145e+06 9.297980e-02 79.5623 9.873984e-01 -5.3137 9.873984e-01 -5.3137 9.297980e-02 79.5623
4.445752e+06 9.615720e-02 79.2224 9.865516e-01 -5.4944 9.865516e-01 -5.4944 9.615720e-02 79.2224
4.602711e+06 9.943563e-02 78.8707 9.856473e-01 -5.6808 9.856473e-01 -5.6808 9.943563e-02 78.8707
4.765212e+06 1.028175e-01 78.5067 9.846817e-01 -5.8730 9.846817e-01 -5.8730 1.028175e-01 78.5067
4.933449e+06 1.063053e-01 78.1302 9.836511e-01 -6.0710 9.836511e-01 -6.0710 1.063053e-01 78.1302
5.107627e+06 1.099012e-01 77.7409 9.825513e-01 -6.2751 9.825513e-01 -6.2751 1.099012e-01 77.7409
5.287954e+06 1.136076e-01 77.3384 9.813780e-01 -6.4853 9.813780e-01 -6.4853 1.136076e-01 77.3384
5.474648e+06 1.174267e-01 76.9224 9.801268e-01 -6.7017 9.801268e-01 -6.7017 1.174267e-01 76.9224
5.667932e+06 1.213608e-01 76.4926 9.787930e-01 -6.9245 9.787930e-01 -6.9245 1.213608e-01 76.4926
5.868041e+06 1.254117e-01 76.0487 9.773716e-01 -7.1536 9.773716e-01 -7.1536 1.254117e-01 76.0487
6.075215e+06 1.295816e-01 75.5904 9.758575e-01 -7.3893 9.758575e-01 -7.3893 1.295816e-01 75.5904
6.289703e+06 1.338721e-01 75.1173 9.742453e-01 -7.6315 9.742453e-01 -7.6315 1.338721e-01 75.1173
6.511764e+06 1.382850e-01 74.6291 9.725294e-01 -7.8804 9.725294e-01 -7.8804 1.382850e-01 74.6291
6.741664e+06 1.428217e-01 74.1256 9.707040e-01 -8.1359 9.707040e-01 -8.1359 1.428217e-01 74.1256
6.979682e+06 1.474836e-01 73.6065 9.687632e-01 -8.3981 9.687632e-01 -8.3981 1.474836e-01 73.6065
7.226102e+06 1.522717e-01 73.0715 9.667006e-01 -8.6670 9.667006e-01 -8.6670 1.522717e-01 73.0715
7.481223e+06 1.571869e-01 72.5202 9.645100e-01 -8.9426 9.645100e-01 -8.9426 1.571869e-01 72.5202
7.745351e+06 1.622296e-01 71.9525 9.621847e-01 -9.2249 9.621847e-01 -9.2249 1.622296e-01 71.9525
8.018804e+06 1.674002e-01 71.3682 9.597181e-01 -9.5138 9.597181e-01 -9.5138 1.674002e-01 71.3682
8.301911e+06 1.726986e-01 70.7669 9.571033e-01 -9.8092 9.571033e-01 -9.8092 1.726986e-01 70.7669
8.595014e+06 1.781243e-01 70.1486 9.543335e-01 -10.1110 9.543335e-01 -10.1110 1.781243e-01 70.1486
8.898464e+06 1.836765e-01 69.5130 9.514017e-01 -10.4192 9.514017e-01 -10.4192 1.836765e-01 69.5130
9.212629e+06 1.893541e-01 68.8600 9.483008e-01 -10.7334 9.483008e-01 -10.7334 1.893541e-01 68.8600
9.537884e+06 1.951553e-01 68.1895 9.450240e-01 -11.0535 9.450240e-01 -11.0535 1.951553e-01 68.1895
9.874624e+06 2.010779e-01 67.5014 9.415642e-01 -11.3793 9.415642e-01 -11.3793 2.010779e-01 67.5014
1.022325e+07 2.071193e-01 66.7957 9.379147e-01 -11.7104 9.379147e-01 -11.7104 2.071193e-01 66.7957
1.058419e+07 2.132763e-01 66.0724 9.340689e-01 -12.0466 9.340689e-01 -12.0466 2.132763e-01 66.0724
1.095787e+07 2.195451e-01 65.3315 9.300204e-01 -12.3874 9.300204e-01 -12.3874 2.195451e-01 65.3315
1.134474e+07 2.259215e-01 64.5731 9.257632e-01 -12.7325 9.257632e-01 -12.7325 2.259215e-01 64.5731
1.174527e+07 2.324005e-01 63.7973 9.212915e-01 -13.0813 9.212915e-01 -13.0813 2.324005e-01 63.7973
1.215994e+07 2.389767e-01 63.0044 9.166004e-01 -13.4333 9.166004e-01 -13.4333 2.389767e-01 63.0044
1.258925e+07 2.456438e-01 62.1945 9.116850e-01 -13.7879 9.116850e-01 -13.7879 2.456438e-01 62.1945
1.303372e+07 2.523951e-01 61.3681 9.065414e-01 -14.1446 9.065414e-01 -14.1446 2.523951e-01 61.3681
1.349388e+07 2.592233e-01 60.5253 9.011663e-01 -14.5025 9.011663e-01 -14.5025 2.592233e-01 60.5253
1.397029e+07 2.661204e-01 59.6667 8.955572e-01 -14.8611 8.955572e-01 -14.8611 2.661204e-01 59.6667
1.446352e+07 2.730778e-01 58.7927 8.897126e-01 -15.2193 8.897126e-01 -15.2193 2.730778e-01 58.7927
1.497416e+07 2.800864e-01 57.9038 8.836318e-01 -15.5765 8.836318e-01 -15.5765 2.800864e-01 57.9038
1.550283e+07 2.871366e-01 57.0008 8.773154e-01 -15.9317 8.773154e-01 -15.9317 2.871366e-01 57.0008
1.605016e+07 2.942182e-01 56.0841 8.707649e-01 -16.2839 8.707649e-01 -16.2839 2.942182e-01 56.0841
1.661682e+07 3.013206e-01 55.1546 8.639831e-01 -16.6320 8.639831e-01 -16.6320 3.013206e-01 55.1546
1.720349e+07 3.084328e-01 54.2131 8.569742e-01 -16.9752 8.569742e-01 -16.9752 3.084328e-01 54.2131
1.781086e+07 3.155435e-01 53.2603 8.497435e-01 -17.3122 8.497435e-01 -17.3122 3.155435e-01 53.2603
1.843968e+07 3.226412e-01 52.2973 8.422976e-01 -17.6419 8.422976e-01 -17.6419 3.226412e-01 52.2973
1.909070e+07 3.297141e-01 51.3248 8.346447e-01 -17.9631 8.346447e-01 -17.9631 3.297141e-01 51.3248
1.976471e+07 3.367504e-01 50.3440 8.267942e-01 -18.2747 8.267942e-01 -18.2747 3.367504e-01 50.3440
2.046251e+07 3.437382e-01 49.3559 8.187569e-01 -18.5755 8.187569e-01 -18.5755 3.437382e-01 49.3559
2.118495e+07 3.506657e-01 48.3616 8.105448e-01 -18.8643 8.105448e-01 -18.8643 3.506657e-01 48.3616
2.193289e+07 3.575214e-01 47.3622 8.021713e-01 -19.1398 8.021713e-01 -19.1398 3.575214e-01 47.3622
2.270724e+07 3.642940e-01 46.3587 7.936509e-01 -19.4008 7.936509e-01 -19.4008 3.642940e-01 46.3587
2.350893e+07 3.709724e-01 45.3525 7.849993e-01 -19.6462 7.849993e-01 -19.6462 3.709724e-01 45.3525
2.433892e+07 3.775462e-01 44.3446 7.762332e-01 -19.8749 7.762332e-01 -19.8749 3.775462e-01 44.3446
2.519822e+07 3.840051e-01 43.3363 7.673699e-01 -20.0857 7.673699e-01 -20.0857 3.840051e-01 43.3363
2.608785e+07 3.903400e-01 42.3287 7.584280e-01 -20.2776 7.584280e-01 -20.2776 3.903400e-01 42.3287
2.700890e+07 3.965418e-01 41.3229 7.494261e-01 -20.4496 7.494261e-01 -20.4496 3.965418e-01 41.3229
2.796246e+07 4.026026e-01 40.3202 7.403836e-01 -20.6008 7.403836e-01 -20.6008 4.026026e-01 40.3202
2.894968e+07 4.085150e-01 39.3216 7.313202e-01 -20.7303 7.313202e-01 -20.7303 4.085150e-01 39.3216
2.997177e+07 4.142725e-01 38.3283 7.222557e-01 -20.8374 7.222557e-01 -20.8374 4.142725e-01 38.3283
3.102993e+07 4.198694e-01 37.3414 7.132096e-01 -20.9213 7.132096e-01 -20.9213 4.198694e-01 37.3414
3.212546e+07 4.253009e-01 36.3617 7.042016e-01 -20.9817 7.042016e-01 -20.9817 4.253009e-01 36.3617
3.325966e+07 4.305629e-01 35.3905 6.952508e-01 -21.0179 6.952508e-01 -21.0179 4.305629e-01 35.3905
3.443391e+07 4.356523e-01 34.4284 6.863759e-01 -21.0297 6.863759e-01 -21.0297 4.356523e-01 34.4284
3.564961e+07 4.405668e-01 33.4765 6.775948e-01 -21.0168 6.775948e-01 -21.0168 4.405668e-01 33.4765
3.690824e+07 4.453048e-01 32.5355 6.689248e-01 -20.9792 6.689248e-01 -20.9792 4.453048e-01 32.5355
3.821130e+07 4.498657e-01 31.6062 6.603822e-01 -20.9168 6.603822e-01 -20.9168 4.498657e-01 31.6062
3.956036e+07 4.542494e-01 30.6893 6.519823e-01 -20.8298 6.519823e-01 -20.8298 4.542494e-01 30.6893
4.095706e+07 4.584566e-01 29.7854 6.437394e-01 -20.7184 6.437394e-01 -20.7184 4.584566e-01 29.7854
4.240307e+07 4.624888e-01 28.8950 6.356665e-01 -20.5830 6.356665e-01 -20.5830 4.624888e-01 28.8950
4.390012e+07 4.663479e-01 28.0187 6.277755e-01 -20.4240 6.277755e-01 -20.4240 4.663479e-01 28.0187
4.545004e+07 4.700364e-01 27.1570 6.200770e-01 -20.2421 6.200770e-01 -20.2421 4.700364e-01 27.1570
4.705467e+07 4.735574e-01 26.3101 6.125804e-01 -20.0378 6.125804e-01 -20.0378 4.735574e-01 26.3101
4.871596e+07 4.769142e-01 25.4783 6.052937e-01 -19.8119 6.052937e-01 -19.8119 4.769142e-01 25.4783
5.043589e+07 4.801108e-01 24.6621 5.982238e-01 -19.5653 5.982238e-01 -19.5653 4.801108e-01 24.6621
5.221656e+07 4.831512e-01 23.8614 5.913762e-01 -19.2988 5.913762e-01 -19.2988 4.831512e-01 23.8614
5.406008e+07 4.860399e-01 23.0765 5.847552e-01 -19.0135 5.847552e-01 -19.0135 4.860399e-01 23.0765
5.596870e+07 4.887816e-01 22.3075 5.783640e-01 -18.7104 5.783640e-01 -18.7104 4.887816e-01 22.3075
5.794470e+07 4.913811e-01 21.5543 5.722046e-01 -18.3904 5.722046e-01 -18.3904 4.913811e-01 21.5543
5.999046e+07 4.938434e-01 20.8171 5.662780e-01 -18.0548 5.662780e-01 -18.0548 4.938434e-01 20.8171
6.210845e+07 4.961735e-01 20.0956 5.605842e-01 -17.7046 5.605842e-01 -17.7046 4.961735e-01 20.0956
6.430121e+07 4.983765e-01 19.3899 5.551222e-01 -17.3410 5.551222e-01 -17.3410 4.983765e-01 19.3899
6.657140e+07 5.004575e-01 18.6997 5.498902e-01 -16.9650 5.498902e-01 -16.9650 5.004575e-01 18.6997
6.892173e+07 5.024217e-01 18.0250 5.448857e-01 -16.5778 5.448857e-01 -16.5778 5.024217e-01 18.0250
7.135504e+07 5.042741e-01 17.3655 5.401053e-01 -16.1806 5.401053e-01 -16.1806 5.042741e-01 17.3655
7.387426e+07 5.060197e-01 16.7210 5.355451e-01 -15.7744 5.355451e-01 -15.7744 5.060197e-01 16.7210
7.648242e+07 5.076634e-01 16.0912 5.312007e-01 -15.3602 5.312007e-01 -15.3602 5.076634e-01 16.0912
7.918267e+07 5.092100e-01 15.4759 5.270672e-01 -14.9391 5.270672e-01 -14.9391 5.092100e-01 15.4759
8.197825e+07 5.106643e-01 14.8747 5.231393e-01 -14.5121 5.231393e-01 -14.5121 5.106643e-01 14.8747
8.487253e+07 5.120307e-01 14.2873 5.194112e-01 -14.0801 5.194112e-01 -14.0801 5.120307e-01 14.2873
8.786899e+07 5.133136e-01 13.7135 5.158772e-01 -13.6440 5.158772e-01 -13.6440 5.133136e-01 13.7135
9.097124e+07 5.145173e-01 13.1527 5.125311e-01 -13.2046 5.125311e-01 -13.2046 5.145173e-01 13.1527
9.418302e+07 5.156459e-01 12.6048 5.093667e-01 -12.7628 5.093667e-01 -12.7628 5.156459e-01 12.6048
9.750819e+07 5.167033e-01 12.0692 5.063776e-01 -12.3191 5.063776e-01 -12.3191 5.167033e-01 12.0692
1.009508e+08 5.176933e-01 11.5456 5.035574e-01 -11.8744 5.035574e-01 -11.8744 5.176933e-01 11.5456
1.045149e+08 5.186195e-01 11.0336 5.008997e-01 -11.4291 5.008997e-01 -11.4291 5.186195e-01 11.0336
1.082048e+08 5.194853e-01 10.5329 4.983983e-01 -10.9839 4.983983e-01 -10.9839 5.194853e-01 10.5329
1.120250e+08 5.202939e-01 10.0429 4.960468e-01 -10.5393 4.960468e-01 -10.5393 5.202939e-01 10.0429
1.159801e+08 5.210484e-01 9.5633 4.938391e-01 -10.0956 4.938391e-01 -10.0956 5.210484e-01 9.5633
1.200749e+08 5.217518e-01 9.0937 4.917692e-01 -9.6533 4.917692e-01 -9.6533 5.217518e-01 9.0937
1.243141e+08 5.224069e-01 8.6336 4.898312e-01 -9.2127 4.898312e-01 -9.2127 5.224069e-01 8.6336
1.287031e+08 5.230162e-01 8.1827 4.880195e-01 -8.7740 4.880195e-01 -8.7740 5.230162e-01 8.1827
1.332470e+08 5.235822e-01 7.7405 4.863285e-01 -8.3375 4.863285e-01 -8.3375 5.235822e-01 7.7405
1.379514e+08 5.241073e-01 7.3066 4.847531e-01 -7.9034 4.847531e-01 -7.9034 5.241073e-01 7.3066
1.428218e+08 5.245935e-01 6.8805 4.832882e-01 -7.4718 4.832882e-01 -7.4718 5.245935e-01 6.8805
1.478642e+08 5.250429e-01 6.4620 4.819291e-01 -7.0429 4.819291e-01 -7.0429 5.250429e-01 6.4620
1.530846e+08 5.254574e-01 6.0504 4.806711e-01 -6.6165 4.806711e-01 -6.6165 5.254574e-01 6.0504
1.584893e+08 5.258387e-01 5.6454 4.795100e-01 -6.1929 4.795100e-01 -6.1929 5.258387e-01 5.6454
1.640849e+08 5.261885e-01 5.2467 4.784418e-01 -5.7720 4.784418e-01 -5.7720 5.261885e-01 5.2467
1.698779e+08 5.265083e-01 4.8537 4.774626e-01 -5.3537 4.774626e-01 -5.3537 5.265083e-01 4.8537
1.758756e+08 5.267994e-01 4.4661 4.765690e-01 -4.9379 4.765690e-01 -4.9379 5.267994e-01 4.4661
1.820849e+08 5.270630e-01 4.0834 4.757576e-01 -4.5246 4.757576e-01 -4.5246 5.270630e-01 4.0834
1.885135e+08 5.273005e-01 3.7053 4.750256e-01 -4.1137 4.750256e-01 -4.1137 5.273005e-01 3.7053
1.951691e+08 5.275127e-01 3.3313 4.743701e-01 -3.7049 4.743701e-01 -3.7049 5.275127e-01 3.3313
2.020596e+08 5.277006e-01 2.9610 4.737887e-01 -3.2982 4.737887e-01 -3.2982 5.277006e-01 2.9610
2.091934e+08 5.278651e-01 2.5940 4.732792e-01 -2.8934 4.732792e-01 -2.8934 5.278651e-01 2.5940
2.165790e+08 5.280068e-01 2.2299 4.728396e-01 -2.4902 4.728396e-01 -2.4902 5.280068e-01 2.2299
2.242255e+08 5.281265e-01 1.8684 4.724682e-01 -2.0885 4.724682e-01 -2.0885 5.281265e-01 1.8684
2.321418e+08 5.282245e-01 1.5089 4.721635e-01 -1.6881 4.721635e-01 -1.6881 5.282245e-01 1.5089
2.403377e+08 5.283015e-01 1.1511 4.719245e-01 -1.2887 4.719245e-01 -1.2887 5.283015e-01 1.1511
2.488229e+08 5.283576e-01 0.7946 4.717501e-01 -0.8900 4.717501e-01 -0.8900 5.283576e-01 0.7946
2.576077e+08 5.283933e-01 0.4391 4.716396e-01 -0.4919 4.716396e-01 -0.4919 5.283933e-01 0.4391
2.667027e+08 5.284085e-01 0.0840 4.715927e-01 -0.0941 4.715927e-01 -0.0941 5.284085e-01 0.0840
2.761187e+08 5.284034e-01 -0.2710 4.716091e-01 0.3037 4.716091e-01 0.3037 5.284034e-01 -0.2710
2.858672e+08 5.283780e-01 -0.6263 4.716889e-01 0.7016 4.716889e-01 0.7016 5.283780e-01 -0.6263
2.959599e+08 5.283322e-01 -0.9823 4.718324e-01 1.1000 4.718324e-01 1.1000 5.283322e-01 -0.9823
3.064089e+08 5.282657e-01 -1.3394 4.720402e-01 1.4990 4.720402e-01 1.4990 5.282657e-01 -1.3394
3.172268e+08 5.281782e-01 -1.6980 4.723131e-01 1.8990 4.723131e-01 1.8990 5.281782e-01 -1.6980
3.284266e+08 5.280694e-01 -2.0586 4.726522e-01 2.3001 4.726522e-01 2.3001 5.280694e-01 -2.0586
3.400219e+08 5.279388e-01 -2.4214 4.730587e-01 2.7025 4.730587e-01 2.7025 5.279388e-01 -2.4214
3.520265e+08 5.277858e-01 -2.7870 4.735343e-01 3.1066 4.735343e-01 3.1066 5.277858e-01 -2.7870
3.644549e+08 5.276097e-01 -3.1556 4.740808e-01 3.5124 4.740808e-01 3.5124 5.276097e-01 -3.1556
3.773222e+08 5.274098e-01 -3.5278 4.747003e-01 3.9202 4.747003e-01 3.9202 5.274098e-01 -3.5278
3.906437e+08 5.271851e-01 -3.9040 4.753952e-01 4.3301 4.753952e-01 4.3301 5.271851e-01 -3.9040
4.044355e+08 5.269347e-01 -4.2845 4.761680e-01 4.7423 4.761680e-01 4.7423 5.269347e-01 -4.2845
4.187143e+08 5.266574e-01 -4.6697 4.770216e-01 5.1569 4.770216e-01 5.1569 5.266574e-01 -4.6697
4.334972e+08 5.263522e-01 -5.0601 4.779591e-01 5.5740 4.779591e-01 5.5740 5.263522e-01 -5.0601
4.488020e+08 5.260176e-01 -5.4561 4.789841e-01 5.9937 4.789841e-01 5.9937 5.260176e-01 -5.4561
4.646472e+08 5.256523e-01 -5.8581 4.801000e-01 6.4162 4.801000e-01 6.4162 5.256523e-01 -5.8581
4.810517e+08 5.252546e-01 -6.2665 4.813108e-01 6.8413 4.813108e-01 6.8413 5.252546e-01 -6.2665
4.980355e+08 5.248229e-01 -6.6817 4.826207e-01 7.2690 4.826207e-01 7.2690 5.248229e-01 -6.6817
5.156188e+08 5.243553e-01 -7.1042 4.840341e-01 7.6995 4.840341e-01 7.6995 5.243553e-01 -7.1042
5.338230e+08 5.238500e-01 -7.5344 4.855557e-01 8.1325 4.855557e-01 8.1325 5.238500e-01 -7.5344
5.526698e+08 5.233047e-01 -7.9727 4.871905e-01 8.5679 4.871905e-01 8.5679 5.233047e-01 -7.9727
5.721821e+08 5.227174e-01 -8.4194 4.889434e-01 9.0057 4.889434e-01 9.0057 5.227174e-01 -8.4194
5.923832e+08 5.220855e-01 -8.8752 4.908200e-01 9.4455 4.908200e-01 9.4455 5.220855e-01 -8.8752
6.132976e+08 5.214066e-01 -9.3402 4.928258e-01 9.8872 4.928258e-01 9.8872 5.214066e-01 -9.3402
6.349503e+08 5.206780e-01 -9.8151 4.949666e-01 10.3304 4.949666e-01 10.3304 5.206780e-01 -9.8151
6.573675e+08 5.198968e-01 -10.3002 4.972482e-01 10.7748 4.972482e-01 10.7748 5.198968e-01 -10.3002
6.805761e+08 5.190601e-01 -10.7958 4.996769e-01 11.2199 4.996769e-01 11.2199 5.190601e-01 -10.7958
7.046042e+08 5.181646e-01 -11.3025 5.022587e-01 11.6654 5.022587e-01 11.6654 5.181646e-01 -11.3025
7.294805e+08 5.172069e-01 -11.8206 5.050001e-01 12.1106 5.050001e-01 12.1106 5.172069e-01 -11.8206
7.552351e+08 5.161837e-01 -12.3505 5.079074e-01 12.5550 5.079074e-01 12.5550 5.161837e-01 -12.3505
7.818990e+08 5.150912e-01 -12.8927 5.109870e-01 12.9980 5.109870e-01 12.9980 5.150912e-01 -12.8927
8.095043e+08 5.139256e-01 -13.4474 5.142452e-01 13.4389 5.142452e-01 13.4389 5.139256e-01 -13.4474
8.380842e+08 5.126828e-01 -14.0151 5.176884e-01 13.8769 5.176884e-01 13.8769 5.126828e-01 -14.0151
8.676732e+08 5.113587e-01 -14.5962 5.213228e-01 14.3112 5.213228e-01 14.3112 5.113587e-01 -14.5962
8.983067e+08 5.099490e-01 -15.1909 5.251544e-01 14.7409 5.251544e-01 14.7409 5.099490e-01 -15.1909
9.300218e+08 5.084492e-01 -15.7996 5.291889e-01 15.1652 5.291889e-01 15.1652 5.084492e-01 -15.7996
9.628567e+08 5.068546e-01 -16.4227 5.334319e-01 15.5831 5.334319e-01 15.5831 5.068546e-01 -16.4227
9.968507e+08 5.051606e-01 -17.0604 5.378885e-01 15.9935 5.378885e-01 15.9935 5.051606e-01 -17.0604
1.032045e+09 5.033623e-01 -17.7129 5.425633e-01 16.3955 5.425633e-01 16.3955 5.033623e-01 -17.7129
1.068482e+09 5.014547e-01 -18.3806 5.474606e-01 16.7879 5.474606e-01 16.7879 5.014547e-01 -18.3806
